ls
Title: "out"
Date: Fri Jun 18 04:57:49 2021
Plotname: Transient Analysis
Flags: real
No. Variables: 12
No. Points: 2500
Command: JoSIM v2.5.2
Variables:
 0 time Seconds
 1 P(B1|X1) Phase
 2 P(B1|X5) Phase
 3 P(B5|X9) Phase
 4 P(B1|X9) Phase
 5 P(B1|X6) Phase
 6 P(B1|X8) Phase
 7 P(B2|X9) Phase
 8 P(B3|X9) Phase
 9 P(B4|X9) Phase
 10 P(B6|X9) Phase
 11 P(B1|X12) Phase
Values:
0    0
     -0
     0
     0
     0
     0
     0
     0
     0
     0
     0
     0
1    2e-13
     2.88986e-05
     3.02423e-05
     2.86366e-05
     -5.75378e-07
     2.88986e-05
     3.02187e-05
     3.03761e-05
     5.75886e-05
     2.2434e-05
     2.61488e-05
     2.88927e-05
2    4e-13
     0.000160969
     0.000168964
     0.000159216
     -4.34253e-06
     0.000160969
     0.000168834
     0.000168337
     0.000287038
     0.000114661
     0.000145775
     0.000161155
3    6e-13
     0.000512571
     0.000540066
     0.0005066
     -1.7302e-05
     0.000512572
     0.000539659
     0.00053459
     0.000826129
     0.000339563
     0.000465042
     0.000513985
4    8e-13
     0.00122605
     0.00129775
     0.001212
     -4.96268e-05
     0.00122605
     0.0012968
     0.00127793
     0.00180483
     0.000765914
     0.00111544
     0.00123173
5    1e-12
     0.00244899
     0.00260627
     0.00242354
     -0.000115931
     0.00244899
     0.00260444
     0.00255557
     0.00332649
     0.00146222
     0.00223613
     0.00246571
6    1.2e-12
     0.00431444
     0.00462039
     0.0042777
     -0.000235078
     0.00431444
     0.0046173
     0.00451407
     0.00545958
     0.00249324
     0.00395696
     0.00435493
7    1.4e-12
     0.00692511
     0.00746918
     0.00688452
     -0.000429482
     0.00692511
     0.00746452
     0.00727354
     0.00823611
     0.00391767
     0.00638448
     0.00701068
8    1.6e-12
     0.0103428
     0.0112445
     0.0103175
     -0.000723816
     0.0103428
     0.0112381
     0.0109162
     0.0116537
     0.00578585
     0.00959215
     0.0105061
9    1.8e-12
     0.0145832
     0.0159943
     0.0146085
     -0.00114313
     0.0145832
     0.0159862
     0.0154797
     0.0156801
     0.00813708
     0.0136149
     0.014871
10   2e-12
     0.0196159
     0.02172
     0.0197472
     -0.00171048
     0.0196159
     0.0217107
     0.0209546
     0.0202585
     0.0109967
     0.0184474
     0.0200913
11   2.2e-12
     0.0253681
     0.0283781
     0.0256838
     -0.00244437
     0.0253681
     0.0283683
     0.0272864
     0.0253143
     0.0143729
     0.0240465
     0.0261124
12   2.4e-12
     0.0317321
     0.0358845
     0.0323355
     -0.00335622
     0.0317322
     0.0358756
     0.0343807
     0.0307608
     0.0182545
     0.0303354
     0.0328453
13   2.6e-12
     0.0385751
     0.0441216
     0.0395935
     -0.00444837
     0.0385752
     0.0441154
     0.0421105
     0.0365056
     0.0226091
     0.0372104
     0.0401755
14   2.8e-12
     0.0457493
     0.0529465
     0.0473322
     -0.00571285
     0.0457494
     0.0529452
     0.0503263
     0.0424557
     0.0273826
     0.0445489
     0.0479718
15   3e-12
     0.053103
     0.0622006
     0.0554173
     -0.00713105
     0.0531033
     0.0622069
     0.0588662
     0.0485218
     0.0325015
     0.0522178
     0.0560963
16   3.2e-12
     0.0604912
     0.0717191
     0.0637139
     -0.00867462
     0.0604916
     0.0717356
     0.067566
     0.0546217
     0.0378753
     0.060081
     0.0644129
17   3.4e-12
     0.0677837
     0.0813399
     0.0720935
     -0.0103073
     0.0677841
     0.0813692
     0.0762695
     0.0606829
     0.0434018
     0.0680076
     0.0727957
18   3.6e-12
     0.0748722
     0.0909122
     0.0804396
     -0.0119878
     0.0748728
     0.0909564
     0.084837
     0.0666439
     0.048973
     0.0758779
     0.0811345
19   3.8e-12
     0.0816752
     0.100303
     0.0886513
     -0.0136729
     0.081676
     0.100364
     0.0931514
     0.0724549
     0.0544823
     0.0835884
     0.08934
20   4e-12
     0.08814
     0.109403
     0.0966462
     -0.015321
     0.0881411
     0.10948
     0.101124
     0.0780783
     0.0598312
     0.0910555
     0.0973457
21   4.2e-12
     0.0942431
     0.11813
     0.104361
     -0.0168957
     0.0942446
     0.118223
     0.108695
     0.083488
     0.0649356
     0.0982178
     0.105109
22   4.4e-12
     0.099988
     0.126431
     0.111754
     -0.0183683
     0.0999899
     0.126536
     0.115837
     0.0886688
     0.0697313
     0.105036
     0.11261
23   4.6e-12
     0.105402
     0.13428
     0.118799
     -0.0197199
     0.105404
     0.134392
     0.12255
     0.0936157
     0.0741771
     0.111494
     0.119849
24   4.8e-12
     0.110531
     0.14168
     0.125492
     -0.0209425
     0.110534
     0.141794
     0.128861
     0.098333
     0.0782573
     0.117595
     0.126845
25   5e-12
     0.115436
     0.14866
     0.131842
     -0.0220387
     0.115439
     0.148766
     0.134818
     0.102833
     0.0819804
     0.123361
     0.133629
26   5.2e-12
     0.120182
     0.155267
     0.137875
     -0.0230209
     0.120186
     0.155355
     0.140484
     0.107135
     0.0853774
     0.12883
     0.140244
27   5.4e-12
     0.12484
     0.161566
     0.143626
     -0.0239092
     0.124845
     0.161624
     0.145933
     0.111266
     0.0884979
     0.13405
     0.146735
28   5.6e-12
     0.129477
     0.167632
     0.149144
     -0.024729
     0.129482
     0.167649
     0.151243
     0.115255
     0.0914047
     0.139077
     0.153152
29   5.8e-12
     0.134151
     0.173546
     0.15448
     -0.0255082
     0.134157
     0.173511
     0.156492
     0.119137
     0.0941686
     0.143975
     0.15954
30   6e-12
     0.138914
     0.179391
     0.159696
     -0.0262748
     0.138921
     0.179293
     0.161751
     0.122949
     0.0968625
     0.148804
     0.165944
31   6.2e-12
     0.143802
     0.185245
     0.164853
     -0.027054
     0.143809
     0.185074
     0.167082
     0.126729
     0.0995557
     0.153626
     0.172399
32   6.4e-12
     0.14884
     0.191178
     0.170011
     -0.0278666
     0.148848
     0.190929
     0.172537
     0.130514
     0.10231
     0.158496
     0.178933
33   6.6e-12
     0.15404
     0.19725
     0.175229
     -0.0287279
     0.154048
     0.19692
     0.178153
     0.134341
     0.105177
     0.163463
     0.185568
34   6.8e-12
     0.159402
     0.203507
     0.180559
     -0.029647
     0.159409
     0.203097
     0.183953
     0.138242
     0.108193
     0.168566
     0.192316
35   7e-12
     0.164914
     0.209981
     0.186044
     -0.0306267
     0.164921
     0.209497
     0.189948
     0.142245
     0.111383
     0.173834
     0.199183
36   7.2e-12
     0.170558
     0.21669
     0.191719
     -0.031665
     0.170565
     0.216141
     0.196135
     0.146371
     0.114757
     0.179286
     0.206167
37   7.4e-12
     0.176311
     0.223638
     0.197605
     -0.0327553
     0.176318
     0.223038
     0.202504
     0.150635
     0.118314
     0.18493
     0.21326
38   7.6e-12
     0.182146
     0.230813
     0.203712
     -0.0338887
     0.182151
     0.230179
     0.209033
     0.155046
     0.122041
     0.190763
     0.220454
39   7.8e-12
     0.188033
     0.238197
     0.210038
     -0.0350546
     0.188037
     0.237548
     0.215698
     0.159604
     0.125921
     0.196772
     0.227732
40   8e-12
     0.193945
     0.24576
     0.216567
     -0.0362426
     0.193949
     0.245115
     0.222469
     0.164301
     0.129929
     0.202938
     0.23508
41   8.2e-12
     0.19986
     0.253466
     0.223276
     -0.0374431
     0.199862
     0.252846
     0.229317
     0.169125
     0.134038
     0.209235
     0.242481
42   8.4e-12
     0.205756
     0.261276
     0.230132
     -0.0386482
     0.205757
     0.260701
     0.236214
     0.174055
     0.138221
     0.215633
     0.249921
43   8.6e-12
     0.211619
     0.269151
     0.237095
     -0.0398521
     0.211618
     0.268636
     0.243132
     0.179069
     0.142452
     0.222098
     0.257383
44   8.8e-12
     0.217437
     0.277054
     0.244124
     -0.041051
     0.217435
     0.276609
     0.250048
     0.184139
     0.146705
     0.228597
     0.264856
45   9e-12
     0.223205
     0.284948
     0.251177
     -0.0422426
     0.223202
     0.284581
     0.256943
     0.18924
     0.150959
     0.2351
     0.272328
46   9.2e-12
     0.228922
     0.292805
     0.258215
     -0.0434262
     0.228919
     0.292517
     0.263803
     0.194342
     0.155196
     0.241578
     0.279791
47   9.4e-12
     0.23459
     0.3006
     0.265203
     -0.0446017
     0.234587
     0.300386
     0.270617
     0.199421
     0.159399
     0.248007
     0.287239
48   9.6e-12
     0.240215
     0.308319
     0.272114
     -0.0457692
     0.240212
     0.308167
     0.27738
     0.204456
     0.163554
     0.25437
     0.294668
49   9.8e-12
     0.245804
     0.31595
     0.278928
     -0.046929
     0.245802
     0.315845
     0.28409
     0.209429
     0.167653
     0.260654
     0.302076
50   1e-11
     0.251367
     0.323491
     0.285634
     -0.0480808
     0.251366
     0.323412
     0.290746
     0.214327
     0.171689
     0.266853
     0.309463
51   1.02e-11
     0.256912
     0.330946
     0.292228
     -0.049224
     0.256912
     0.330869
     0.297352
     0.219144
     0.175655
     0.272967
     0.31683
52   1.04e-11
     0.262448
     0.338323
     0.298716
     -0.050358
     0.262451
     0.338223
     0.303915
     0.223879
     0.179552
     0.279
     0.324182
53   1.06e-11
     0.267984
     0.345634
     0.305109
     -0.0514817
     0.267989
     0.345487
     0.310439
     0.228534
     0.183381
     0.284962
     0.331522
54   1.08e-11
     0.273527
     0.352896
     0.311424
     -0.0525946
     0.273534
     0.352679
     0.316934
     0.233118
     0.187146
     0.290865
     0.338855
55   1.1e-11
     0.279083
     0.360125
     0.31768
     -0.0536966
     0.279092
     0.359819
     0.323408
     0.237643
     0.190855
     0.296725
     0.346187
56   1.12e-11
     0.284657
     0.367341
     0.323901
     -0.0547885
     0.284668
     0.366931
     0.329869
     0.242123
     0.194518
     0.302559
     0.353523
57   1.14e-11
     0.290251
     0.374561
     0.330107
     -0.0558719
     0.290264
     0.374037
     0.336325
     0.246574
     0.198147
     0.308381
     0.36087
58   1.16e-11
     0.295868
     0.381801
     0.33632
     -0.0569496
     0.295883
     0.381161
     0.342786
     0.251013
     0.201758
     0.31421
     0.368233
59   1.18e-11
     0.30151
     0.389075
     0.342559
     -0.058025
     0.301526
     0.388324
     0.349259
     0.255456
     0.205365
     0.320058
     0.375617
60   1.2e-11
     0.307176
     0.396397
     0.348839
     -0.0591022
     0.307193
     0.395543
     0.355752
     0.259917
     0.208985
     0.325939
     0.383029
61   1.22e-11
     0.312866
     0.403775
     0.355173
     -0.0601854
     0.312883
     0.402834
     0.362272
     0.26441
     0.212631
     0.331862
     0.39047
62   1.24e-11
     0.318579
     0.411217
     0.361569
     -0.0612789
     0.318595
     0.410207
     0.368824
     0.268944
     0.216318
     0.337835
     0.397946
63   1.26e-11
     0.324315
     0.418725
     0.368033
     -0.062386
     0.32433
     0.417668
     0.375415
     0.273527
     0.220056
     0.343863
     0.405459
64   1.28e-11
     0.330072
     0.426301
     0.374566
     -0.0635094
     0.330085
     0.425221
     0.382049
     0.278164
     0.223851
     0.349948
     0.41301
65   1.3e-11
     0.335848
     0.433945
     0.381167
     -0.0646506
     0.335859
     0.432864
     0.388728
     0.282856
     0.227708
     0.35609
     0.420601
66   1.32e-11
     0.341643
     0.441653
     0.387832
     -0.0658096
     0.341651
     0.440593
     0.395454
     0.287602
     0.231628
     0.362287
     0.428232
67   1.34e-11
     0.347454
     0.449422
     0.394558
     -0.0669853
     0.347459
     0.448399
     0.402228
     0.292398
     0.235606
     0.368535
     0.435903
68   1.36e-11
     0.353281
     0.457246
     0.401336
     -0.0681755
     0.353283
     0.456274
     0.40905
     0.297241
     0.239636
     0.374829
     0.443612
69   1.38e-11
     0.359121
     0.465119
     0.408161
     -0.0693769
     0.359121
     0.464207
     0.415916
     0.302122
     0.243711
     0.381164
     0.451358
70   1.4e-11
     0.364975
     0.473037
     0.415025
     -0.0705861
     0.364972
     0.472186
     0.422826
     0.307035
     0.247819
     0.387533
     0.459139
71   1.42e-11
     0.370839
     0.480992
     0.42192
     -0.0717991
     0.370834
     0.4802
     0.429773
     0.311972
     0.251951
     0.39393
     0.466953
72   1.44e-11
     0.376713
     0.488981
     0.428839
     -0.0730126
     0.376707
     0.488238
     0.436755
     0.316926
     0.256095
     0.400348
     0.474798
73   1.46e-11
     0.382596
     0.496997
     0.435776
     -0.0742236
     0.382589
     0.496292
     0.443765
     0.32189
     0.260242
     0.406782
     0.482671
74   1.48e-11
     0.388487
     0.505037
     0.442724
     -0.0754299
     0.38848
     0.504354
     0.450799
     0.326856
     0.264383
     0.413226
     0.490572
75   1.5e-11
     0.394385
     0.513097
     0.449679
     -0.0766304
     0.394379
     0.512419
     0.457851
     0.331821
     0.268514
     0.419676
     0.498499
76   1.52e-11
     0.400289
     0.521177
     0.456636
     -0.0778249
     0.400285
     0.520483
     0.464917
     0.33678
     0.272631
     0.426128
     0.50645
77   1.54e-11
     0.4062
     0.529274
     0.463593
     -0.0790142
     0.406199
     0.528545
     0.471993
     0.34173
     0.276731
     0.43258
     0.514425
78   1.56e-11
     0.412117
     0.537388
     0.470548
     -0.0801997
     0.412119
     0.536607
     0.479075
     0.34667
     0.280816
     0.439031
     0.522425
79   1.58e-11
     0.418042
     0.54552
     0.477501
     -0.0813835
     0.418047
     0.544672
     0.486162
     0.3516
     0.284888
     0.44548
     0.53045
80   1.6e-11
     0.423974
     0.55367
     0.484452
     -0.0825678
     0.423983
     0.552744
     0.493252
     0.356521
     0.28895
     0.451928
     0.5385
81   1.62e-11
     0.429916
     0.561842
     0.491404
     -0.0837549
     0.429928
     0.560828
     0.500346
     0.361435
     0.293007
     0.458377
     0.546578
82   1.64e-11
     0.435868
     0.570038
     0.49836
     -0.0849469
     0.435883
     0.568932
     0.507445
     0.366345
     0.297063
     0.46483
     0.554685
83   1.66e-11
     0.441832
     0.57826
     0.505323
     -0.0861454
     0.44185
     0.577063
     0.514551
     0.371253
     0.301123
     0.47129
     0.562822
84   1.68e-11
     0.44781
     0.586513
     0.512299
     -0.0873516
     0.44783
     0.585227
     0.521668
     0.376164
     0.305191
     0.47776
     0.570994
85   1.7e-11
     0.453803
     0.594799
     0.519293
     -0.0885662
     0.453825
     0.593431
     0.528799
     0.381082
     0.309272
     0.484245
     0.579201
86   1.72e-11
     0.459814
     0.603123
     0.52631
     -0.0897893
     0.459836
     0.601682
     0.535948
     0.386009
     0.313368
     0.490749
     0.587447
87   1.74e-11
     0.465843
     0.611488
     0.533356
     -0.0910206
     0.465865
     0.609985
     0.54312
     0.39095
     0.317481
     0.497276
     0.595734
88   1.76e-11
     0.471893
     0.619899
     0.540435
     -0.0922595
     0.471913
     0.618344
     0.550319
     0.395909
     0.321614
     0.503829
     0.604064
89   1.78e-11
     0.477964
     0.628359
     0.547551
     -0.0935052
     0.477982
     0.626763
     0.557551
     0.400887
     0.325767
     0.510413
     0.61244
90   1.8e-11
     0.484057
     0.63687
     0.554708
     -0.0947571
     0.484072
     0.635245
     0.564817
     0.405887
     0.329942
     0.51703
     0.620864
91   1.82e-11
     0.490173
     0.645437
     0.561909
     -0.0960144
     0.490185
     0.643791
     0.572123
     0.410911
     0.334139
     0.523682
     0.629337
92   1.84e-11
     0.496312
     0.654062
     0.569154
     -0.0972767
     0.496321
     0.652402
     0.57947
     0.415961
     0.338358
     0.530372
     0.637862
93   1.86e-11
     0.502475
     0.662747
     0.576445
     -0.0985438
     0.502481
     0.661078
     0.586862
     0.421036
     0.3426
     0.537099
     0.646439
94   1.88e-11
     0.508661
     0.671494
     0.583782
     -0.0998156
     0.508663
     0.669818
     0.594298
     0.426137
     0.346865
     0.543865
     0.655071
95   1.9e-11
     0.51487
     0.680304
     0.591163
     -0.101093
     0.514869
     0.678621
     0.601781
     0.431263
     0.351154
     0.550669
     0.663758
96   1.92e-11
     0.521102
     0.68918
     0.598588
     -0.102375
     0.521098
     0.687487
     0.60931
     0.436415
     0.355465
     0.557512
     0.672501
97   1.94e-11
     0.527356
     0.698122
     0.606056
     -0.103663
     0.52735
     0.696413
     0.616886
     0.441591
     0.3598
     0.564391
     0.681301
98   1.96e-11
     0.533631
     0.707131
     0.613564
     -0.104958
     0.533624
     0.705401
     0.624506
     0.446791
     0.364158
     0.571307
     0.69016
99   1.98e-11
     0.539928
     0.716208
     0.621112
     -0.10626
     0.539921
     0.714448
     0.632171
     0.452012
     0.368539
     0.578259
     0.699078
100  2e-11
     0.546246
     0.725352
     0.628698
     -0.10757
     0.546239
     0.723554
     0.63988
     0.457256
     0.372942
     0.585245
     0.708056
101  2.02e-11
     0.552557
     0.734536
     0.636293
     -0.108886
     0.552551
     0.73269
     0.6476
     0.462461
     0.377344
     0.592238
     0.717067
102  2.04e-11
     0.558785
     0.743679
     0.643823
     -0.110207
     0.558781
     0.741778
     0.655254
     0.467514
     0.381697
     0.59917
     0.726037
103  2.06e-11
     0.564813
     0.752656
     0.65117
     -0.111526
     0.564811
     0.750691
     0.662718
     0.472274
     0.385937
     0.605934
     0.734847
104  2.08e-11
     0.570496
     0.761309
     0.658191
     -0.112833
     0.570497
     0.759272
     0.669838
     0.476607
     0.389992
     0.612394
     0.743349
105  2.1e-11
     0.575681
     0.769461
     0.66473
     -0.114114
     0.575686
     0.767348
     0.676448
     0.480404
     0.393792
     0.618404
     0.751384
106  2.12e-11
     0.580227
     0.776942
     0.67064
     -0.115347
     0.580234
     0.774746
     0.682387
     0.483589
     0.397268
     0.623825
     0.758798
107  2.14e-11
     0.584017
     0.783598
     0.675792
     -0.116511
     0.584027
     0.781315
     0.687517
     0.486119
     0.400355
     0.628536
     0.765459
108  2.16e-11
     0.586974
     0.789302
     0.680094
     -0.117578
     0.586987
     0.786931
     0.69173
     0.487986
     0.402997
     0.632447
     0.771265
109  2.18e-11
     0.589063
     0.793965
     0.683486
     -0.118521
     0.589078
     0.791503
     0.694957
     0.489207
     0.405144
     0.635498
     0.776153
110  2.2e-11
     0.590293
     0.797536
     0.685949
     -0.119314
     0.590308
     0.794984
     0.697174
     0.489826
     0.406759
     0.637669
     0.780097
111  2.22e-11
     0.590712
     0.800006
     0.687498
     -0.119932
     0.590728
     0.797363
     0.698398
     0.489904
     0.407819
     0.638976
     0.783108
112  2.24e-11
     0.590408
     0.801402
     0.688185
     -0.12036
     0.590424
     0.798667
     0.698685
     0.489512
     0.40832
     0.639466
     0.785234
113  2.26e-11
     0.589493
     0.801786
     0.688087
     -0.120588
     0.589508
     0.798961
     0.698129
     0.488731
     0.408275
     0.639215
     0.786547
114  2.28e-11
     0.5881
     0.801251
     0.687302
     -0.120617
     0.588113
     0.798336
     0.696848
     0.487645
     0.40772
     0.638321
     0.787144
115  2.3e-11
     0.586372
     0.799915
     0.685943
     -0.120456
